T71F0 000:008.722   SEGGER J-Link V7.96k Log File
T71F0 000:008.965   DLL Compiled: Jun  5 2024 13:20:19
T71F0 000:008.983   Logging started @ 2025-04-30 02:29
T71F0 000:008.999   Process: C:\Keil_v5\UV4\UV4.exe
T71F0 000:009.018 - 9.013ms
T71F0 000:009.043 JLINK_SetWarnOutHandler(...)
T71F0 000:009.061 - 0.025ms
T71F0 000:009.079 JLINK_OpenEx(...)
T71F0 000:012.486   Firmware: J-Link V9 compiled May  7 2021 16:26:12
T71F0 000:013.347   Firmware: J-Link V9 compiled May  7 2021 16:26:12
T71F0 000:013.565   Decompressing FW timestamp took 149 us
T71F0 000:019.188   Hardware: V9.70
T71F0 000:019.220   S/N: 69706099
T71F0 000:019.237   OEM: SEGGER
T71F0 000:019.254   Feature(s): RDI, FlashBP, FlashDL, JFlash, GDB
T71F0 000:019.840   Bootloader: (Could not read)
T71F0 000:020.501   TELNET listener socket opened on port 19021
T71F0 000:020.854   WEBSRV WEBSRV_Init(): Starting webserver thread(s)
T71F0 000:021.107   WEBSRV Webserver running on local port 19080
T71F0 000:021.305   Looking for J-Link GUI Server exe at: C:\Keil_v5\ARM\Segger\JLinkGUIServer.exe
T71F0 000:021.568   Looking for J-Link GUI Server exe at: C:\Program Files\SEGGER\JLink_V796k\JLinkGUIServer.exe
T71F0 000:021.653   Forking J-Link GUI Server: C:\Program Files\SEGGER\JLink_V796k\JLinkGUIServer.exe
T71F0 000:053.868   J-Link GUI Server info: "J-Link GUI server V7.96k "
T71F0 000:056.599 - 47.509ms returns "O.K."
T71F0 000:056.657 JLINK_GetEmuCaps()
T71F0 000:056.673 - 0.013ms returns 0xB9FF7BBF
T71F0 000:056.690 JLINK_TIF_GetAvailable(...)
T71F0 000:056.864 - 0.174ms
T71F0 000:056.892 JLINK_SetErrorOutHandler(...)
T71F0 000:056.904 - 0.012ms
T71F0 000:056.943 JLINK_ExecCommand("ProjectFile = "C:\Users\gtc\Desktop\hc32\HC32-MDK\app\MDK\JLinkSettings.ini"", ...). 
T71F0 000:070.284   Ref file found at: C:\Keil_v5\ARM\Segger\JLinkDevices.ref
T71F0 000:070.408   REF file references invalid XML file: C:\Program Files\SEGGER\JLink_V796k\JLinkDevices.xml
T71F0 000:075.032   Device "CORTEX-M4" selected.
T71F0 000:075.703 - 18.759ms returns 0x00
T71F0 000:078.449 JLINK_ExecCommand("Device = HC32F460JETA", ...). 
T71F0 000:080.419   Device "HC32F460XE" selected.
T71F0 000:080.935 - 2.445ms returns 0x00
T71F0 000:080.957 JLINK_ExecCommand("DisableConnectionTimeout", ...). 
T71F0 000:080.972   ERROR: Unknown command
T71F0 000:080.989 - 0.018ms returns 0x01
T71F0 000:081.004 JLINK_GetHardwareVersion()
T71F0 000:081.020 - 0.012ms returns 97000
T71F0 000:081.033 JLINK_GetDLLVersion()
T71F0 000:081.044 - 0.011ms returns 79611
T71F0 000:081.056 JLINK_GetOEMString(...)
T71F0 000:081.069 JLINK_GetFirmwareString(...)
T71F0 000:081.081 - 0.011ms
T71F0 000:087.306 JLINK_GetDLLVersion()
T71F0 000:087.349 - 0.042ms returns 79611
T71F0 000:087.362 JLINK_GetCompileDateTime()
T71F0 000:087.373 - 0.011ms
T71F0 000:088.884 JLINK_GetFirmwareString(...)
T71F0 000:088.913 - 0.029ms
T71F0 000:090.286 JLINK_GetHardwareVersion()
T71F0 000:090.310 - 0.022ms returns 97000
T71F0 000:091.828 JLINK_GetSN()
T71F0 000:091.861 - 0.032ms returns 69706099
T71F0 000:094.773 JLINK_GetOEMString(...)
T71F0 000:098.018 JLINK_TIF_Select(JLINKARM_TIF_SWD)
T71F0 000:098.507 - 0.489ms returns 0x00
T71F0 000:098.529 JLINK_HasError()
T71F0 000:098.553 JLINK_SetSpeed(5000)
T71F0 000:098.621 - 0.070ms
T71F0 000:098.636 JLINK_GetId()
T71F0 000:103.434   Found SW-DP with ID 0x2BA01477
T71F0 000:107.564   DPIDR: 0x2BA01477
T71F0 000:109.345   CoreSight SoC-400 or earlier
T71F0 000:111.985   Scanning AP map to find all available APs
T71F0 000:114.398   AP[1]: Stopped AP scan as end of AP map has been reached
T71F0 000:115.823   AP[0]: AHB-AP (IDR: 0x24770011)
T71F0 000:117.752   Iterating through AP map to find AHB-AP to use
T71F0 000:120.628   AP[0]: Core found
T71F0 000:122.521   AP[0]: AHB-AP ROM base: 0xE00FF000
T71F0 000:124.596   CPUID register: 0x410FC241. Implementer code: 0x41 (ARM)
T71F0 000:127.005   Found Cortex-M4 r0p1, Little endian.
T71F0 000:127.392   -- Max. mem block: 0x00010E60
T71F0 000:127.714   CPU_ReadMem(4 bytes @ 0xE000EDF0)
T71F0 000:128.074   CPU_WriteMem(4 bytes @ 0xE000EDF0)
T71F0 000:128.422   CPU_ReadMem(4 bytes @ 0xE0002000)
T71F0 000:130.361   FPUnit: 6 code (BP) slots and 2 literal slots
T71F0 000:130.388   CPU_ReadMem(4 bytes @ 0xE000EDFC)
T71F0 000:130.639   CPU_WriteMem(4 bytes @ 0xE000EDFC)
T71F0 000:130.868   CPU_ReadMem(4 bytes @ 0xE0001000)
T71F0 000:131.102   CPU_WriteMem(4 bytes @ 0xE0001000)
T71F0 000:131.345   CPU_ReadMem(4 bytes @ 0xE000ED88)
T71F0 000:131.575   CPU_WriteMem(4 bytes @ 0xE000ED88)
T71F0 000:131.819   CPU_ReadMem(4 bytes @ 0xE000ED88)
T71F0 000:132.038   CPU_WriteMem(4 bytes @ 0xE000ED88)
T71F0 000:134.333   CoreSight components:
T71F0 000:135.895   ROMTbl[0] @ E00FF000
T71F0 000:135.926   CPU_ReadMem(64 bytes @ 0xE00FF000)
T71F0 000:136.435   CPU_ReadMem(32 bytes @ 0xE000EFE0)
T71F0 000:139.333   [0][0]: E000E000 CID B105E00D PID 000BB00C SCS-M7
T71F0 000:139.384   CPU_ReadMem(32 bytes @ 0xE0001FE0)
T71F0 000:141.555   [0][1]: E0001000 CID B105E00D PID 003BB002 DWT
T71F0 000:141.611   CPU_ReadMem(32 bytes @ 0xE0002FE0)
T71F0 000:144.754   [0][2]: E0002000 CID B105E00D PID 002BB003 FPB
T71F0 000:144.833   CPU_ReadMem(32 bytes @ 0xE0000FE0)
T71F0 000:147.253   [0][3]: E0000000 CID B105E00D PID 003BB001 ITM
T71F0 000:147.301   CPU_ReadMem(32 bytes @ 0xE0040FE0)
T71F0 000:149.670   [0][4]: E0040000 CID B105900D PID 000BB9A1 TPIU
T71F0 000:149.937 - 51.299ms returns 0x2BA01477
T71F0 000:149.994 JLINK_GetDLLVersion()
T71F0 000:150.015 - 0.021ms returns 79611
T71F0 000:150.040 JLINK_CORE_GetFound()
T71F0 000:150.061 - 0.020ms returns 0xE0000FF
T71F0 000:150.087 JLINK_GetDebugInfo(0x100 = JLINKARM_ROM_TABLE_ADDR_INDEX)
T71F0 000:150.110   Value=0xE00FF000
T71F0 000:150.139 - 0.053ms returns 0
T71F0 000:152.284 JLINK_GetDebugInfo(0x100 = JLINKARM_ROM_TABLE_ADDR_INDEX)
T71F0 000:152.310   Value=0xE00FF000
T71F0 000:152.328 - 0.044ms returns 0
T71F0 000:152.342 JLINK_GetDebugInfo(0x101 = JLINKARM_DEBUG_INFO_ETM_ADDR_INDEX)
T71F0 000:152.354   Value=0x00000000
T71F0 000:152.370 - 0.029ms returns 0
T71F0 000:152.392 JLINK_ReadMemEx(0xE0041FF0, 0x10 Bytes, Flags = 0x02000004)
T71F0 000:152.428   CPU_ReadMem(16 bytes @ 0xE0041FF0)
T71F0 000:152.740   Data:  00 00 00 00 00 00 00 00 00 00 00 00 00 00 00 00
T71F0 000:152.767 - 0.374ms returns 16 (0x10)
T71F0 000:152.781 JLINK_GetDebugInfo(0x102 = JLINKARM_DEBUG_INFO_MTB_ADDR_INDEX)
T71F0 000:152.793   Value=0x00000000
T71F0 000:152.810 - 0.029ms returns 0
T71F0 000:152.823 JLINK_GetDebugInfo(0x103 = JLINKARM_DEBUG_INFO_TPIU_ADDR_INDEX)
T71F0 000:152.835   Value=0xE0040000
T71F0 000:152.852 - 0.029ms returns 0
T71F0 000:152.865 JLINK_GetDebugInfo(0x104 = JLINKARM_DEBUG_INFO_ITM_ADDR_INDEX)
T71F0 000:152.876   Value=0xE0000000
T71F0 000:152.893 - 0.028ms returns 0
T71F0 000:152.906 JLINK_GetDebugInfo(0x105 = JLINKARM_DEBUG_INFO_DWT_ADDR_INDEX)
T71F0 000:152.917   Value=0xE0001000
T71F0 000:152.934 - 0.028ms returns 0
T71F0 000:152.947 JLINK_GetDebugInfo(0x106 = JLINKARM_DEBUG_INFO_FPB_ADDR_INDEX)
T71F0 000:152.958   Value=0xE0002000
T71F0 000:152.976 - 0.029ms returns 0
T71F0 000:152.988 JLINK_GetDebugInfo(0x107 = JLINKARM_DEBUG_INFO_NVIC_ADDR_INDEX)
T71F0 000:153.000   Value=0xE000E000
T71F0 000:153.024 - 0.036ms returns 0
T71F0 000:153.037 JLINK_GetDebugInfo(0x10C = JLINKARM_DEBUG_INFO_DBG_ADDR_INDEX)
T71F0 000:153.048   Value=0xE000EDF0
T71F0 000:153.065 - 0.028ms returns 0
T71F0 000:153.080 JLINK_GetDebugInfo(0x01 = Unknown)
T71F0 000:153.092   Value=0x00000001
T71F0 000:153.109 - 0.031ms returns 0
T71F0 000:153.122 JLINK_ReadMemU32(0xE000ED00, 0x1 Items)
T71F0 000:153.139   CPU_ReadMem(4 bytes @ 0xE000ED00)
T71F0 000:153.390   Data:  41 C2 0F 41
T71F0 000:153.412   Debug reg: CPUID
T71F0 000:153.430 - 0.308ms returns 1 (0x1)
T71F0 000:153.444 JLINK_GetDebugInfo(0x10F = JLINKARM_DEBUG_INFO_HAS_CORTEX_M_SECURITY_EXT_INDEX)
T71F0 000:153.456   Value=0x00000000
T71F0 000:153.473 - 0.029ms returns 0
T71F0 000:153.486 JLINK_HasError()
T71F0 000:153.500 JLINK_SetResetType(JLINKARM_CM3_RESET_TYPE_NORMAL)
T71F0 000:153.513 - 0.012ms returns JLINKARM_CM3_RESET_TYPE_NORMAL
T71F0 000:153.536 JLINK_Reset()
T71F0 000:153.554   CPU is running
T71F0 000:153.572   CPU_WriteMem(4 bytes @ 0xE000EDF0)
T71F0 000:153.842   CPU is running
T71F0 000:153.895   CPU_WriteMem(4 bytes @ 0xE000EDFC)
T71F0 000:156.517   Reset: Halt core after reset via DEMCR.VC_CORERESET.
T71F0 000:159.069   Reset: Reset device via AIRCR.SYSRESETREQ.
T71F0 000:159.115   CPU is running
T71F0 000:159.137   CPU_WriteMem(4 bytes @ 0xE000ED0C)
T71F0 000:212.075   CPU_ReadMem(4 bytes @ 0xE000EDF0)
T71F0 000:212.400   CPU_ReadMem(4 bytes @ 0xE000EDF0)
T71F0 000:214.520   CPU_WriteMem(4 bytes @ 0xE000EDFC)
T71F0 000:220.566   CPU_ReadMem(4 bytes @ 0xE000EDF0)
T71F0 000:222.630   CPU_WriteMem(4 bytes @ 0xE0002000)
T71F0 000:222.877   CPU_ReadMem(4 bytes @ 0xE000EDFC)
T71F0 000:223.103   CPU_ReadMem(4 bytes @ 0xE0001000)
T71F0 000:223.338 - 69.801ms
T71F0 000:223.378 JLINK_Halt()
T71F0 000:223.393 - 0.014ms returns 0x00
T71F0 000:223.411 JLINK_ReadMemU32(0xE000EDF0, 0x1 Items)
T71F0 000:223.436   CPU_ReadMem(4 bytes @ 0xE000EDF0)
T71F0 000:223.673   Data:  03 00 03 00
T71F0 000:223.697   Debug reg: DHCSR
T71F0 000:223.716 - 0.305ms returns 1 (0x1)
T71F0 000:223.735 JLINK_WriteU32_64(0xE000EDF0, 0xA05F0003)
T71F0 000:223.749   Debug reg: DHCSR
T71F0 000:224.149   CPU_WriteMem(4 bytes @ 0xE000EDF0)
T71F0 000:224.404 - 0.669ms returns 0 (0x00000000)
T71F0 000:224.425 JLINK_WriteU32_64(0xE000EDFC, 0x01000000)
T71F0 000:224.439   Debug reg: DEMCR
T71F0 000:224.460   CPU_WriteMem(4 bytes @ 0xE000EDFC)
T71F0 000:224.750 - 0.324ms returns 0 (0x00000000)
T71F0 000:234.043 JLINK_GetHWStatus(...)
T71F0 000:234.258 - 0.214ms returns 0
T71F0 000:239.070 JLINK_GetNumBPUnits(Type = 0xFFFFFF00)
T71F0 000:239.102 - 0.032ms returns 0x06
T71F0 000:239.115 JLINK_GetNumBPUnits(Type = 0xF0)
T71F0 000:239.128 - 0.012ms returns 0x2000
T71F0 000:239.140 JLINK_GetNumWPUnits()
T71F0 000:239.153 - 0.012ms returns 4
T71F0 000:244.122 JLINK_GetSpeed()
T71F0 000:244.183 - 0.061ms returns 4000
T71F0 000:247.584 JLINK_ReadMemU32(0xE000E004, 0x1 Items)
T71F0 000:247.655   CPU_ReadMem(4 bytes @ 0xE000E004)
T71F0 000:248.044   Data:  04 00 00 00
T71F0 000:248.065 - 0.481ms returns 1 (0x1)
T71F0 000:248.079 JLINK_ReadMemU32(0xE000E004, 0x1 Items)
T71F0 000:248.092   CPU_ReadMem(4 bytes @ 0xE000E004)
T71F0 000:248.334   Data:  04 00 00 00
T71F0 000:248.352 - 0.272ms returns 1 (0x1)
T71F0 000:248.366 JLINK_WriteMemEx(0xE0001000, 0x0000001C Bytes, Flags = 0x02000004)
T71F0 000:248.378   Data:  01 00 00 00 00 00 00 00 00 00 00 00 00 00 00 00 ...
T71F0 000:248.403   CPU_WriteMem(28 bytes @ 0xE0001000)
T71F0 000:248.729 - 0.363ms returns 0x1C
T71F0 000:252.583 JLINK_Halt()
T71F0 000:252.607 - 0.024ms returns 0x00
T71F0 000:252.620 JLINK_IsHalted()
T71F0 000:252.634 - 0.014ms returns TRUE
T71F0 000:255.765 JLINK_WriteMem(0x1FFF8000, 0x670 Bytes, ...)
T71F0 000:255.784   Data:  00 BE 0A E0 0D 78 2D 06 68 40 08 24 40 00 00 D3 ...
T71F0 000:256.150   CPU_WriteMem(1648 bytes @ 0x1FFF8000)
T71F0 000:261.492 - 5.726ms returns 0x670
T71F0 000:261.576 JLINK_HasError()
T71F0 000:261.605 JLINK_WriteReg(R0, 0x00000000)
T71F0 000:261.623 - 0.030ms returns 0
T71F0 000:261.635 JLINK_WriteReg(R1, 0x007A1200)
T71F0 000:261.647 - 0.011ms returns 0
T71F0 000:261.660 JLINK_WriteReg(R2, 0x00000001)
T71F0 000:261.672 - 0.011ms returns 0
T71F0 000:261.693 JLINK_WriteReg(R3, 0x00000000)
T71F0 000:261.711 - 0.018ms returns 0
T71F0 000:261.731 JLINK_WriteReg(R4, 0x00000000)
T71F0 000:261.749 - 0.018ms returns 0
T71F0 000:261.769 JLINK_WriteReg(R5, 0x00000000)
T71F0 000:261.788 - 0.019ms returns 0
T71F0 000:261.808 JLINK_WriteReg(R6, 0x00000000)
T71F0 000:261.826 - 0.018ms returns 0
T71F0 000:261.846 JLINK_WriteReg(R7, 0x00000000)
T71F0 000:261.866 - 0.019ms returns 0
T71F0 000:261.885 JLINK_WriteReg(R8, 0x00000000)
T71F0 000:261.904 - 0.018ms returns 0
T71F0 000:261.923 JLINK_WriteReg(R9, 0x1FFF866C)
T71F0 000:261.942 - 0.018ms returns 0
T71F0 000:261.961 JLINK_WriteReg(R10, 0x00000000)
T71F0 000:261.991 - 0.030ms returns 0
T71F0 000:262.011 JLINK_WriteReg(R11, 0x00000000)
T71F0 000:262.029 - 0.018ms returns 0
T71F0 000:262.049 JLINK_WriteReg(R12, 0x00000000)
T71F0 000:262.067 - 0.018ms returns 0
T71F0 000:262.087 JLINK_WriteReg(R13 (SP), 0x1FFF9000)
T71F0 000:262.107 - 0.020ms returns 0
T71F0 000:262.127 JLINK_WriteReg(R14, 0x1FFF8001)
T71F0 000:262.146 - 0.019ms returns 0
T71F0 000:262.169 JLINK_WriteReg(R15 (PC), 0x1FFF8478)
T71F0 000:262.187 - 0.022ms returns 0
T71F0 000:262.207 JLINK_WriteReg(XPSR, 0x01000000)
T71F0 000:262.226 - 0.019ms returns 0
T71F0 000:262.245 JLINK_WriteReg(MSP, 0x1FFF9000)
T71F0 000:262.264 - 0.018ms returns 0
T71F0 000:262.283 JLINK_WriteReg(PSP, 0x1FFF9000)
T71F0 000:262.302 - 0.018ms returns 0
T71F0 000:262.322 JLINK_WriteReg(CFBP, 0x00000000)
T71F0 000:262.340 - 0.018ms returns 0
T71F0 000:262.361 JLINK_SetBPEx(Addr = 0x1FFF8000, Type = 0xFFFFFFF2)
T71F0 000:262.382 - 0.022ms returns 0x00000001
T71F0 000:262.402 JLINK_Go()
T71F0 000:262.429   CPU_WriteMem(4 bytes @ 0xE0002000)
T71F0 000:262.819   CPU_ReadMem(4 bytes @ 0xE0001000)
T71F0 000:263.068   CPU_WriteMem(4 bytes @ 0xE0002008)
T71F0 000:263.097   CPU_WriteMem(4 bytes @ 0xE000200C)
T71F0 000:263.119   CPU_WriteMem(4 bytes @ 0xE0002010)
T71F0 000:263.136   CPU_WriteMem(4 bytes @ 0xE0002014)
T71F0 000:263.153   CPU_WriteMem(4 bytes @ 0xE0002018)
T71F0 000:263.170   CPU_WriteMem(4 bytes @ 0xE000201C)
T71F0 000:264.119   CPU_WriteMem(4 bytes @ 0xE0001004)
T71F0 000:269.095   Memory map 'after startup completion point' is active
T71F0 000:269.138 - 6.735ms
T71F0 000:269.154 JLINK_IsHalted()
T71F0 000:271.059 - 1.905ms returns TRUE
T71F0 000:271.097 JLINK_ReadReg(R15 (PC))
T71F0 000:271.119 - 0.022ms returns 0x1FFF8000
T71F0 000:271.140 JLINK_ClrBPEx(BPHandle = 0x00000001)
T71F0 000:271.160 - 0.019ms returns 0x00
T71F0 000:271.181 JLINK_ReadReg(R0)
T71F0 000:271.199 - 0.019ms returns 0x00000000
T71F0 000:271.939 JLINK_HasError()
T71F0 000:271.973 JLINK_WriteReg(R0, 0x00000000)
T71F0 000:271.994 - 0.021ms returns 0
T71F0 000:272.013 JLINK_WriteReg(R1, 0x00002000)
T71F0 000:272.032 - 0.018ms returns 0
T71F0 000:272.051 JLINK_WriteReg(R2, 0x000000FF)
T71F0 000:272.069 - 0.018ms returns 0
T71F0 000:272.089 JLINK_WriteReg(R3, 0x00000000)
T71F0 000:272.107 - 0.018ms returns 0
T71F0 000:272.126 JLINK_WriteReg(R4, 0x00000000)
T71F0 000:272.145 - 0.018ms returns 0
T71F0 000:272.164 JLINK_WriteReg(R5, 0x00000000)
T71F0 000:272.182 - 0.018ms returns 0
T71F0 000:272.201 JLINK_WriteReg(R6, 0x00000000)
T71F0 000:272.219 - 0.018ms returns 0
T71F0 000:272.238 JLINK_WriteReg(R7, 0x00000000)
T71F0 000:272.256 - 0.018ms returns 0
T71F0 000:272.275 JLINK_WriteReg(R8, 0x00000000)
T71F0 000:272.294 - 0.018ms returns 0
T71F0 000:272.313 JLINK_WriteReg(R9, 0x1FFF866C)
T71F0 000:272.331 - 0.018ms returns 0
T71F0 000:272.351 JLINK_WriteReg(R10, 0x00000000)
T71F0 000:272.369 - 0.018ms returns 0
T71F0 000:272.389 JLINK_WriteReg(R11, 0x00000000)
T71F0 000:272.407 - 0.018ms returns 0
T71F0 000:272.427 JLINK_WriteReg(R12, 0x00000000)
T71F0 000:272.445 - 0.018ms returns 0
T71F0 000:272.464 JLINK_WriteReg(R13 (SP), 0x1FFF9000)
T71F0 000:272.482 - 0.018ms returns 0
T71F0 000:272.502 JLINK_WriteReg(R14, 0x1FFF8001)
T71F0 000:272.520 - 0.018ms returns 0
T71F0 000:272.539 JLINK_WriteReg(R15 (PC), 0x1FFF8020)
T71F0 000:272.558 - 0.018ms returns 0
T71F0 000:272.577 JLINK_WriteReg(XPSR, 0x01000000)
T71F0 000:272.595 - 0.018ms returns 0
T71F0 000:272.614 JLINK_WriteReg(MSP, 0x1FFF9000)
T71F0 000:272.633 - 0.018ms returns 0
T71F0 000:272.651 JLINK_WriteReg(PSP, 0x1FFF9000)
T71F0 000:272.670 - 0.018ms returns 0
T71F0 000:272.688 JLINK_WriteReg(CFBP, 0x00000000)
T71F0 000:272.700 - 0.011ms returns 0
T71F0 000:272.713 JLINK_SetBPEx(Addr = 0x1FFF8000, Type = 0xFFFFFFF2)
T71F0 000:272.726 - 0.013ms returns 0x00000002
T71F0 000:272.738 JLINK_Go()
T71F0 000:272.754   CPU_WriteMem(4 bytes @ 0xE0002000)
T71F0 000:273.029   CPU_ReadMem(4 bytes @ 0xE0001000)
T71F0 000:275.103 - 2.364ms
T71F0 000:275.143 JLINK_IsHalted()
T71F0 000:277.069 - 1.927ms returns TRUE
T71F0 000:277.142 JLINK_ReadReg(R15 (PC))
T71F0 000:277.161 - 0.018ms returns 0x1FFF8000
T71F0 000:277.178 JLINK_ClrBPEx(BPHandle = 0x00000002)
T71F0 000:277.193 - 0.015ms returns 0x00
T71F0 000:277.208 JLINK_ReadReg(R0)
T71F0 000:277.222 - 0.015ms returns 0x00000001
T71F0 000:277.361 JLINK_HasError()
T71F0 000:277.384 JLINK_WriteReg(R0, 0x00000000)
T71F0 000:277.407 - 0.023ms returns 0
T71F0 000:277.419 JLINK_WriteReg(R1, 0x00002000)
T71F0 000:277.431 - 0.012ms returns 0
T71F0 000:277.444 JLINK_WriteReg(R2, 0x000000FF)
T71F0 000:277.455 - 0.011ms returns 0
T71F0 000:277.468 JLINK_WriteReg(R3, 0x00000000)
T71F0 000:277.479 - 0.011ms returns 0
T71F0 000:277.491 JLINK_WriteReg(R4, 0x00000000)
T71F0 000:277.503 - 0.011ms returns 0
T71F0 000:277.515 JLINK_WriteReg(R5, 0x00000000)
T71F0 000:277.527 - 0.011ms returns 0
T71F0 000:277.539 JLINK_WriteReg(R6, 0x00000000)
T71F0 000:277.552 - 0.013ms returns 0
T71F0 000:277.564 JLINK_WriteReg(R7, 0x00000000)
T71F0 000:277.576 - 0.011ms returns 0
T71F0 000:277.589 JLINK_WriteReg(R8, 0x00000000)
T71F0 000:277.600 - 0.012ms returns 0
T71F0 000:277.612 JLINK_WriteReg(R9, 0x1FFF866C)
T71F0 000:277.624 - 0.011ms returns 0
T71F0 000:277.636 JLINK_WriteReg(R10, 0x00000000)
T71F0 000:277.648 - 0.011ms returns 0
T71F0 000:277.660 JLINK_WriteReg(R11, 0x00000000)
T71F0 000:277.672 - 0.011ms returns 0
T71F0 000:277.684 JLINK_WriteReg(R12, 0x00000000)
T71F0 000:277.696 - 0.011ms returns 0
T71F0 000:277.708 JLINK_WriteReg(R13 (SP), 0x1FFF9000)
T71F0 000:277.720 - 0.012ms returns 0
T71F0 000:277.732 JLINK_WriteReg(R14, 0x1FFF8001)
T71F0 000:277.744 - 0.011ms returns 0
T71F0 000:277.756 JLINK_WriteReg(R15 (PC), 0x1FFF813E)
T71F0 000:277.768 - 0.011ms returns 0
T71F0 000:277.780 JLINK_WriteReg(XPSR, 0x01000000)
T71F0 000:277.792 - 0.011ms returns 0
T71F0 000:277.804 JLINK_WriteReg(MSP, 0x1FFF9000)
T71F0 000:277.816 - 0.011ms returns 0
T71F0 000:277.828 JLINK_WriteReg(PSP, 0x1FFF9000)
T71F0 000:277.839 - 0.011ms returns 0
T71F0 000:277.852 JLINK_WriteReg(CFBP, 0x00000000)
T71F0 000:277.863 - 0.011ms returns 0
T71F0 000:277.877 JLINK_SetBPEx(Addr = 0x1FFF8000, Type = 0xFFFFFFF2)
T71F0 000:277.890 - 0.013ms returns 0x00000003
T71F0 000:277.902 JLINK_Go()
T71F0 000:277.923   CPU_WriteMem(4 bytes @ 0xE0002000)
T71F0 000:278.197   CPU_ReadMem(4 bytes @ 0xE0001000)
T71F0 000:280.186 - 2.282ms
T71F0 000:280.222 JLINK_IsHalted()
T71F0 000:280.470 - 0.247ms returns FALSE
T71F0 000:280.500 JLINK_HasError()
T71F0 000:309.949 JLINK_IsHalted()
T71F0 000:312.434 - 2.484ms returns TRUE
T71F0 000:312.499 JLINK_ReadReg(R15 (PC))
T71F0 000:312.526 - 0.027ms returns 0x1FFF8000
T71F0 000:312.548 JLINK_ClrBPEx(BPHandle = 0x00000003)
T71F0 000:312.570 - 0.022ms returns 0x00
T71F0 000:312.593 JLINK_ReadReg(R0)
T71F0 000:312.613 - 0.020ms returns 0x00000000
T71F0 000:313.378 JLINK_HasError()
T71F0 000:313.413 JLINK_WriteReg(R0, 0x00002000)
T71F0 000:313.427 - 0.014ms returns 0
T71F0 000:313.440 JLINK_WriteReg(R1, 0x00002000)
T71F0 000:313.452 - 0.012ms returns 0
T71F0 000:313.470 JLINK_WriteReg(R2, 0x000000FF)
T71F0 000:313.482 - 0.012ms returns 0
T71F0 000:313.494 JLINK_WriteReg(R3, 0x00000000)
T71F0 000:313.506 - 0.011ms returns 0
T71F0 000:313.524 JLINK_WriteReg(R4, 0x00000000)
T71F0 000:313.537 - 0.012ms returns 0
T71F0 000:313.549 JLINK_WriteReg(R5, 0x00000000)
T71F0 000:313.561 - 0.011ms returns 0
T71F0 000:313.573 JLINK_WriteReg(R6, 0x00000000)
T71F0 000:313.584 - 0.011ms returns 0
T71F0 000:313.597 JLINK_WriteReg(R7, 0x00000000)
T71F0 000:313.609 - 0.011ms returns 0
T71F0 000:313.621 JLINK_WriteReg(R8, 0x00000000)
T71F0 000:313.633 - 0.011ms returns 0
T71F0 000:313.645 JLINK_WriteReg(R9, 0x1FFF866C)
T71F0 000:313.656 - 0.011ms returns 0
T71F0 000:313.668 JLINK_WriteReg(R10, 0x00000000)
T71F0 000:313.679 - 0.011ms returns 0
T71F0 000:313.692 JLINK_WriteReg(R11, 0x00000000)
T71F0 000:313.703 - 0.011ms returns 0
T71F0 000:313.715 JLINK_WriteReg(R12, 0x00000000)
T71F0 000:313.746 - 0.031ms returns 0
T71F0 000:313.758 JLINK_WriteReg(R13 (SP), 0x1FFF9000)
T71F0 000:313.770 - 0.012ms returns 0
T71F0 000:313.783 JLINK_WriteReg(R14, 0x1FFF8001)
T71F0 000:313.794 - 0.011ms returns 0
T71F0 000:313.806 JLINK_WriteReg(R15 (PC), 0x1FFF8020)
T71F0 000:313.818 - 0.011ms returns 0
T71F0 000:313.830 JLINK_WriteReg(XPSR, 0x01000000)
T71F0 000:313.842 - 0.012ms returns 0
T71F0 000:313.858 JLINK_WriteReg(MSP, 0x1FFF9000)
T71F0 000:313.870 - 0.011ms returns 0
T71F0 000:313.882 JLINK_WriteReg(PSP, 0x1FFF9000)
T71F0 000:313.893 - 0.011ms returns 0
T71F0 000:313.912 JLINK_WriteReg(CFBP, 0x00000000)
T71F0 000:313.925 - 0.013ms returns 0
T71F0 000:313.938 JLINK_SetBPEx(Addr = 0x1FFF8000, Type = 0xFFFFFFF2)
T71F0 000:313.952 - 0.014ms returns 0x00000004
T71F0 000:313.964 JLINK_Go()
T71F0 000:313.988   CPU_WriteMem(4 bytes @ 0xE0002000)
T71F0 000:314.354   CPU_ReadMem(4 bytes @ 0xE0001000)
T71F0 000:316.789 - 2.824ms
T71F0 000:316.825 JLINK_IsHalted()
T71F0 000:318.690 - 1.864ms returns TRUE
T71F0 000:318.727 JLINK_ReadReg(R15 (PC))
T71F0 000:318.749 - 0.021ms returns 0x1FFF8000
T71F0 000:318.769 JLINK_ClrBPEx(BPHandle = 0x00000004)
T71F0 000:318.788 - 0.019ms returns 0x00
T71F0 000:318.808 JLINK_ReadReg(R0)
T71F0 000:318.827 - 0.018ms returns 0x00000001
T71F0 000:318.849 JLINK_HasError()
T71F0 000:318.869 JLINK_WriteReg(R0, 0x00002000)
T71F0 000:318.889 - 0.019ms returns 0
T71F0 000:318.909 JLINK_WriteReg(R1, 0x00002000)
T71F0 000:318.928 - 0.018ms returns 0
T71F0 000:318.947 JLINK_WriteReg(R2, 0x000000FF)
T71F0 000:318.966 - 0.018ms returns 0
T71F0 000:318.986 JLINK_WriteReg(R3, 0x00000000)
T71F0 000:319.004 - 0.018ms returns 0
T71F0 000:319.024 JLINK_WriteReg(R4, 0x00000000)
T71F0 000:319.042 - 0.018ms returns 0
T71F0 000:319.062 JLINK_WriteReg(R5, 0x00000000)
T71F0 000:319.080 - 0.018ms returns 0
T71F0 000:319.099 JLINK_WriteReg(R6, 0x00000000)
T71F0 000:319.118 - 0.018ms returns 0
T71F0 000:319.137 JLINK_WriteReg(R7, 0x00000000)
T71F0 000:319.156 - 0.018ms returns 0
T71F0 000:319.175 JLINK_WriteReg(R8, 0x00000000)
T71F0 000:319.194 - 0.018ms returns 0
T71F0 000:319.213 JLINK_WriteReg(R9, 0x1FFF866C)
T71F0 000:319.232 - 0.018ms returns 0
T71F0 000:319.252 JLINK_WriteReg(R10, 0x00000000)
T71F0 000:319.270 - 0.018ms returns 0
T71F0 000:319.290 JLINK_WriteReg(R11, 0x00000000)
T71F0 000:319.308 - 0.018ms returns 0
T71F0 000:319.328 JLINK_WriteReg(R12, 0x00000000)
T71F0 000:319.346 - 0.018ms returns 0
T71F0 000:319.366 JLINK_WriteReg(R13 (SP), 0x1FFF9000)
T71F0 000:319.385 - 0.019ms returns 0
T71F0 000:319.405 JLINK_WriteReg(R14, 0x1FFF8001)
T71F0 000:319.423 - 0.018ms returns 0
T71F0 000:319.443 JLINK_WriteReg(R15 (PC), 0x1FFF813E)
T71F0 000:319.462 - 0.018ms returns 0
T71F0 000:319.481 JLINK_WriteReg(XPSR, 0x01000000)
T71F0 000:319.500 - 0.019ms returns 0
T71F0 000:319.519 JLINK_WriteReg(MSP, 0x1FFF9000)
T71F0 000:319.538 - 0.018ms returns 0
T71F0 000:319.558 JLINK_WriteReg(PSP, 0x1FFF9000)
T71F0 000:319.576 - 0.018ms returns 0
T71F0 000:319.595 JLINK_WriteReg(CFBP, 0x00000000)
T71F0 000:319.614 - 0.018ms returns 0
T71F0 000:319.635 JLINK_SetBPEx(Addr = 0x1FFF8000, Type = 0xFFFFFFF2)
T71F0 000:319.654 - 0.020ms returns 0x00000005
T71F0 000:319.673 JLINK_Go()
T71F0 000:319.695   CPU_WriteMem(4 bytes @ 0xE0002000)
T71F0 000:320.031   CPU_ReadMem(4 bytes @ 0xE0001000)
T71F0 000:322.051 - 2.377ms
T71F0 000:322.083 JLINK_IsHalted()
T71F0 000:322.330 - 0.246ms returns FALSE
T71F0 000:322.352 JLINK_HasError()
T71F0 000:325.325 JLINK_IsHalted()
T71F0 000:325.580 - 0.254ms returns FALSE
T71F0 000:325.602 JLINK_HasError()
T71F0 000:327.459 JLINK_IsHalted()
T71F0 000:327.718 - 0.258ms returns FALSE
T71F0 000:327.751 JLINK_HasError()
T71F0 000:331.550 JLINK_IsHalted()
T71F0 000:331.818 - 0.267ms returns FALSE
T71F0 000:331.841 JLINK_HasError()
T71F0 000:334.604 JLINK_IsHalted()
T71F0 000:334.837 - 0.233ms returns FALSE
T71F0 000:334.852 JLINK_HasError()
T71F0 000:336.609 JLINK_IsHalted()
T71F0 000:338.760 - 2.150ms returns TRUE
T71F0 000:338.805 JLINK_ReadReg(R15 (PC))
T71F0 000:338.830 - 0.025ms returns 0x1FFF8000
T71F0 000:338.852 JLINK_ClrBPEx(BPHandle = 0x00000005)
T71F0 000:338.874 - 0.021ms returns 0x00
T71F0 000:338.896 JLINK_ReadReg(R0)
T71F0 000:338.916 - 0.020ms returns 0x00000000
T71F0 000:339.621 JLINK_HasError()
T71F0 000:339.657 JLINK_WriteReg(R0, 0x00004000)
T71F0 000:339.672 - 0.014ms returns 0
T71F0 000:339.686 JLINK_WriteReg(R1, 0x00002000)
T71F0 000:339.700 - 0.013ms returns 0
T71F0 000:339.714 JLINK_WriteReg(R2, 0x000000FF)
T71F0 000:339.727 - 0.013ms returns 0
T71F0 000:339.742 JLINK_WriteReg(R3, 0x00000000)
T71F0 000:339.761 - 0.018ms returns 0
T71F0 000:339.774 JLINK_WriteReg(R4, 0x00000000)
T71F0 000:339.788 - 0.013ms returns 0
T71F0 000:339.804 JLINK_WriteReg(R5, 0x00000000)
T71F0 000:339.817 - 0.013ms returns 0
T71F0 000:339.830 JLINK_WriteReg(R6, 0x00000000)
T71F0 000:339.841 - 0.011ms returns 0
T71F0 000:339.853 JLINK_WriteReg(R7, 0x00000000)
T71F0 000:339.865 - 0.011ms returns 0
T71F0 000:339.878 JLINK_WriteReg(R8, 0x00000000)
T71F0 000:339.889 - 0.011ms returns 0
T71F0 000:339.901 JLINK_WriteReg(R9, 0x1FFF866C)
T71F0 000:339.913 - 0.011ms returns 0
T71F0 000:339.925 JLINK_WriteReg(R10, 0x00000000)
T71F0 000:339.937 - 0.011ms returns 0
T71F0 000:339.949 JLINK_WriteReg(R11, 0x00000000)
T71F0 000:339.960 - 0.011ms returns 0
T71F0 000:339.973 JLINK_WriteReg(R12, 0x00000000)
T71F0 000:339.984 - 0.011ms returns 0
T71F0 000:339.997 JLINK_WriteReg(R13 (SP), 0x1FFF9000)
T71F0 000:340.009 - 0.012ms returns 0
T71F0 000:340.021 JLINK_WriteReg(R14, 0x1FFF8001)
T71F0 000:340.033 - 0.012ms returns 0
T71F0 000:340.045 JLINK_WriteReg(R15 (PC), 0x1FFF8020)
T71F0 000:340.057 - 0.011ms returns 0
T71F0 000:340.069 JLINK_WriteReg(XPSR, 0x01000000)
T71F0 000:340.081 - 0.012ms returns 0
T71F0 000:340.094 JLINK_WriteReg(MSP, 0x1FFF9000)
T71F0 000:340.105 - 0.011ms returns 0
T71F0 000:340.117 JLINK_WriteReg(PSP, 0x1FFF9000)
T71F0 000:340.130 - 0.012ms returns 0
T71F0 000:340.151 JLINK_WriteReg(CFBP, 0x00000000)
T71F0 000:340.167 - 0.016ms returns 0
T71F0 000:340.184 JLINK_SetBPEx(Addr = 0x1FFF8000, Type = 0xFFFFFFF2)
T71F0 000:340.202 - 0.017ms returns 0x00000006
T71F0 000:340.214 JLINK_Go()
T71F0 000:340.233   CPU_WriteMem(4 bytes @ 0xE0002000)
T71F0 000:340.493   CPU_ReadMem(4 bytes @ 0xE0001000)
T71F0 000:342.991 - 2.776ms
T71F0 000:343.032 JLINK_IsHalted()
T71F0 000:345.166 - 2.133ms returns TRUE
T71F0 000:345.192 JLINK_ReadReg(R15 (PC))
T71F0 000:345.207 - 0.015ms returns 0x1FFF8000
T71F0 000:345.220 JLINK_ClrBPEx(BPHandle = 0x00000006)
T71F0 000:345.234 - 0.013ms returns 0x00
T71F0 000:345.247 JLINK_ReadReg(R0)
T71F0 000:345.258 - 0.011ms returns 0x00000001
T71F0 000:345.272 JLINK_HasError()
T71F0 000:345.285 JLINK_WriteReg(R0, 0x00004000)
T71F0 000:345.298 - 0.012ms returns 0
T71F0 000:345.310 JLINK_WriteReg(R1, 0x00002000)
T71F0 000:345.322 - 0.011ms returns 0
T71F0 000:345.334 JLINK_WriteReg(R2, 0x000000FF)
T71F0 000:345.345 - 0.011ms returns 0
T71F0 000:345.358 JLINK_WriteReg(R3, 0x00000000)
T71F0 000:345.369 - 0.011ms returns 0
T71F0 000:345.382 JLINK_WriteReg(R4, 0x00000000)
T71F0 000:345.393 - 0.011ms returns 0
T71F0 000:345.406 JLINK_WriteReg(R5, 0x00000000)
T71F0 000:345.417 - 0.011ms returns 0
T71F0 000:345.430 JLINK_WriteReg(R6, 0x00000000)
T71F0 000:345.441 - 0.011ms returns 0
T71F0 000:345.454 JLINK_WriteReg(R7, 0x00000000)
T71F0 000:345.465 - 0.011ms returns 0
T71F0 000:345.478 JLINK_WriteReg(R8, 0x00000000)
T71F0 000:345.490 - 0.011ms returns 0
T71F0 000:345.502 JLINK_WriteReg(R9, 0x1FFF866C)
T71F0 000:345.513 - 0.011ms returns 0
T71F0 000:345.526 JLINK_WriteReg(R10, 0x00000000)
T71F0 000:345.538 - 0.011ms returns 0
T71F0 000:345.550 JLINK_WriteReg(R11, 0x00000000)
T71F0 000:345.562 - 0.011ms returns 0
T71F0 000:345.574 JLINK_WriteReg(R12, 0x00000000)
T71F0 000:345.585 - 0.011ms returns 0
T71F0 000:345.598 JLINK_WriteReg(R13 (SP), 0x1FFF9000)
T71F0 000:345.610 - 0.011ms returns 0
T71F0 000:345.622 JLINK_WriteReg(R14, 0x1FFF8001)
T71F0 000:345.648 - 0.025ms returns 0
T71F0 000:345.660 JLINK_WriteReg(R15 (PC), 0x1FFF813E)
T71F0 000:345.680 - 0.019ms returns 0
T71F0 000:345.700 JLINK_WriteReg(XPSR, 0x01000000)
T71F0 000:345.718 - 0.018ms returns 0
T71F0 000:345.737 JLINK_WriteReg(MSP, 0x1FFF9000)
T71F0 000:345.755 - 0.018ms returns 0
T71F0 000:345.775 JLINK_WriteReg(PSP, 0x1FFF9000)
T71F0 000:345.793 - 0.018ms returns 0
T71F0 000:345.813 JLINK_WriteReg(CFBP, 0x00000000)
T71F0 000:345.831 - 0.018ms returns 0
T71F0 000:345.852 JLINK_SetBPEx(Addr = 0x1FFF8000, Type = 0xFFFFFFF2)
T71F0 000:345.871 - 0.020ms returns 0x00000007
T71F0 000:345.890 JLINK_Go()
T71F0 000:345.917   CPU_WriteMem(4 bytes @ 0xE0002000)
T71F0 000:346.205   CPU_ReadMem(4 bytes @ 0xE0001000)
T71F0 000:348.155 - 2.264ms
T71F0 000:348.190 JLINK_IsHalted()
T71F0 000:348.446 - 0.255ms returns FALSE
T71F0 000:348.479 JLINK_HasError()
T71F0 000:351.724 JLINK_IsHalted()
T71F0 000:352.046 - 0.322ms returns FALSE
T71F0 000:352.081 JLINK_HasError()
T71F0 000:355.719 JLINK_IsHalted()
T71F0 000:356.046 - 0.326ms returns FALSE
T71F0 000:356.091 JLINK_HasError()
T71F0 000:357.717 JLINK_IsHalted()
T71F0 000:358.080 - 0.362ms returns FALSE
T71F0 000:358.129 JLINK_HasError()
T71F0 000:360.496 JLINK_IsHalted()
T71F0 000:360.758 - 0.262ms returns FALSE
T71F0 000:360.779 JLINK_HasError()
T71F0 000:362.481 JLINK_IsHalted()
T71F0 000:364.289 - 1.807ms returns TRUE
T71F0 000:364.314 JLINK_ReadReg(R15 (PC))
T71F0 000:364.335 - 0.021ms returns 0x1FFF8000
T71F0 000:364.359 JLINK_ClrBPEx(BPHandle = 0x00000007)
T71F0 000:364.378 - 0.018ms returns 0x00
T71F0 000:364.398 JLINK_ReadReg(R0)
T71F0 000:364.417 - 0.018ms returns 0x00000000
T71F0 000:365.026 JLINK_HasError()
T71F0 000:365.057 JLINK_WriteReg(R0, 0x00000001)
T71F0 000:365.077 - 0.020ms returns 0
T71F0 000:365.097 JLINK_WriteReg(R1, 0x00002000)
T71F0 000:365.116 - 0.018ms returns 0
T71F0 000:365.135 JLINK_WriteReg(R2, 0x000000FF)
T71F0 000:365.154 - 0.018ms returns 0
T71F0 000:365.173 JLINK_WriteReg(R3, 0x00000000)
T71F0 000:365.192 - 0.018ms returns 0
T71F0 000:365.211 JLINK_WriteReg(R4, 0x00000000)
T71F0 000:365.229 - 0.018ms returns 0
T71F0 000:365.249 JLINK_WriteReg(R5, 0x00000000)
T71F0 000:365.267 - 0.018ms returns 0
T71F0 000:365.287 JLINK_WriteReg(R6, 0x00000000)
T71F0 000:365.306 - 0.018ms returns 0
T71F0 000:365.325 JLINK_WriteReg(R7, 0x00000000)
T71F0 000:365.343 - 0.018ms returns 0
T71F0 000:365.397 JLINK_WriteReg(R8, 0x00000000)
T71F0 000:365.427 - 0.029ms returns 0
T71F0 000:365.447 JLINK_WriteReg(R9, 0x1FFF866C)
T71F0 000:365.466 - 0.018ms returns 0
T71F0 000:365.485 JLINK_WriteReg(R10, 0x00000000)
T71F0 000:365.503 - 0.018ms returns 0
T71F0 000:365.523 JLINK_WriteReg(R11, 0x00000000)
T71F0 000:365.541 - 0.018ms returns 0
T71F0 000:365.561 JLINK_WriteReg(R12, 0x00000000)
T71F0 000:365.580 - 0.018ms returns 0
T71F0 000:365.600 JLINK_WriteReg(R13 (SP), 0x1FFF9000)
T71F0 000:365.619 - 0.019ms returns 0
T71F0 000:365.639 JLINK_WriteReg(R14, 0x1FFF8001)
T71F0 000:365.657 - 0.019ms returns 0
T71F0 000:365.677 JLINK_WriteReg(R15 (PC), 0x1FFF84B4)
T71F0 000:365.695 - 0.018ms returns 0
T71F0 000:365.715 JLINK_WriteReg(XPSR, 0x01000000)
T71F0 000:365.734 - 0.018ms returns 0
T71F0 000:365.753 JLINK_WriteReg(MSP, 0x1FFF9000)
T71F0 000:365.772 - 0.018ms returns 0
T71F0 000:365.792 JLINK_WriteReg(PSP, 0x1FFF9000)
T71F0 000:365.810 - 0.018ms returns 0
T71F0 000:365.830 JLINK_WriteReg(CFBP, 0x00000000)
T71F0 000:365.849 - 0.018ms returns 0
T71F0 000:365.869 JLINK_SetBPEx(Addr = 0x1FFF8000, Type = 0xFFFFFFF2)
T71F0 000:365.889 - 0.020ms returns 0x00000008
T71F0 000:365.909 JLINK_Go()
T71F0 000:365.933   CPU_WriteMem(4 bytes @ 0xE0002000)
T71F0 000:366.211   CPU_ReadMem(4 bytes @ 0xE0001000)
T71F0 000:368.353 - 2.443ms
T71F0 000:368.379 JLINK_IsHalted()
T71F0 000:370.158 - 1.779ms returns TRUE
T71F0 000:370.193 JLINK_ReadReg(R15 (PC))
T71F0 000:370.214 - 0.021ms returns 0x1FFF8000
T71F0 000:370.234 JLINK_ClrBPEx(BPHandle = 0x00000008)
T71F0 000:370.367 - 0.132ms returns 0x00
T71F0 000:370.394 JLINK_ReadReg(R0)
T71F0 000:370.413 - 0.018ms returns 0x00000000
T71F0 000:429.458 JLINK_WriteMem(0x1FFF8000, 0x670 Bytes, ...)
T71F0 000:429.499   Data:  00 BE 0A E0 0D 78 2D 06 68 40 08 24 40 00 00 D3 ...
T71F0 000:429.548   CPU_WriteMem(1648 bytes @ 0x1FFF8000)
T71F0 000:434.949 - 5.489ms returns 0x670
T71F0 000:435.377 JLINK_HasError()
T71F0 000:435.398 JLINK_WriteReg(R0, 0x00000000)
T71F0 000:435.416 - 0.018ms returns 0
T71F0 000:435.429 JLINK_WriteReg(R1, 0x007A1200)
T71F0 000:435.441 - 0.012ms returns 0
T71F0 000:435.455 JLINK_WriteReg(R2, 0x00000002)
T71F0 000:435.467 - 0.012ms returns 0
T71F0 000:435.480 JLINK_WriteReg(R3, 0x00000000)
T71F0 000:435.492 - 0.012ms returns 0
T71F0 000:435.505 JLINK_WriteReg(R4, 0x00000000)
T71F0 000:435.517 - 0.012ms returns 0
T71F0 000:435.530 JLINK_WriteReg(R5, 0x00000000)
T71F0 000:435.543 - 0.012ms returns 0
T71F0 000:435.555 JLINK_WriteReg(R6, 0x00000000)
T71F0 000:435.568 - 0.012ms returns 0
T71F0 000:435.581 JLINK_WriteReg(R7, 0x00000000)
T71F0 000:435.593 - 0.012ms returns 0
T71F0 000:435.606 JLINK_WriteReg(R8, 0x00000000)
T71F0 000:435.620 - 0.014ms returns 0
T71F0 000:435.632 JLINK_WriteReg(R9, 0x1FFF866C)
T71F0 000:435.645 - 0.012ms returns 0
T71F0 000:435.658 JLINK_WriteReg(R10, 0x00000000)
T71F0 000:435.670 - 0.012ms returns 0
T71F0 000:435.683 JLINK_WriteReg(R11, 0x00000000)
T71F0 000:435.696 - 0.012ms returns 0
T71F0 000:435.709 JLINK_WriteReg(R12, 0x00000000)
T71F0 000:435.721 - 0.012ms returns 0
T71F0 000:435.734 JLINK_WriteReg(R13 (SP), 0x1FFF9000)
T71F0 000:435.748 - 0.014ms returns 0
T71F0 000:435.761 JLINK_WriteReg(R14, 0x1FFF8001)
T71F0 000:435.774 - 0.012ms returns 0
T71F0 000:435.787 JLINK_WriteReg(R15 (PC), 0x1FFF8478)
T71F0 000:435.801 - 0.013ms returns 0
T71F0 000:435.827 JLINK_WriteReg(XPSR, 0x01000000)
T71F0 000:435.848 - 0.021ms returns 0
T71F0 000:435.868 JLINK_WriteReg(MSP, 0x1FFF9000)
T71F0 000:435.888 - 0.019ms returns 0
T71F0 000:435.909 JLINK_WriteReg(PSP, 0x1FFF9000)
T71F0 000:435.929 - 0.019ms returns 0
T71F0 000:435.950 JLINK_WriteReg(CFBP, 0x00000000)
T71F0 000:435.970 - 0.020ms returns 0
T71F0 000:435.993 JLINK_SetBPEx(Addr = 0x1FFF8000, Type = 0xFFFFFFF2)
T71F0 000:436.016 - 0.023ms returns 0x00000009
T71F0 000:436.038 JLINK_Go()
T71F0 000:436.067   CPU_WriteMem(4 bytes @ 0xE0002000)
T71F0 000:436.372   CPU_ReadMem(4 bytes @ 0xE0001000)
T71F0 000:438.319 - 2.281ms
T71F0 000:438.341 JLINK_IsHalted()
T71F0 000:440.121 - 1.779ms returns TRUE
T71F0 000:440.152 JLINK_ReadReg(R15 (PC))
T71F0 000:440.172 - 0.020ms returns 0x1FFF8000
T71F0 000:440.193 JLINK_ClrBPEx(BPHandle = 0x00000009)
T71F0 000:440.212 - 0.019ms returns 0x00
T71F0 000:440.232 JLINK_ReadReg(R0)
T71F0 000:440.251 - 0.018ms returns 0x00000000
T71F0 000:440.650 JLINK_WriteMem(0x1FFF8670, 0x190 Bytes, ...)
T71F0 000:440.678   Data:  D8 C3 FF 1F 2D 03 00 00 65 03 00 00 67 03 00 00 ...
T71F0 000:440.719   CPU_WriteMem(400 bytes @ 0x1FFF8670)
T71F0 000:443.368 - 2.717ms returns 0x190
T71F0 000:443.411 JLINK_WriteMem(0x1FFF8800, 0x70 Bytes, ...)
T71F0 000:443.427   Data:  C5 32 00 00 DD 32 00 00 F5 32 00 00 0D 33 00 00 ...
T71F0 000:443.460   CPU_WriteMem(112 bytes @ 0x1FFF8800)
T71F0 000:444.303 - 0.892ms returns 0x70
T71F0 000:444.341 JLINK_HasError()
T71F0 000:444.355 JLINK_WriteReg(R0, 0x00000000)
T71F0 000:444.373 - 0.018ms returns 0
T71F0 000:444.387 JLINK_WriteReg(R1, 0x00000200)
T71F0 000:444.408 - 0.020ms returns 0
T71F0 000:444.424 JLINK_WriteReg(R2, 0x1FFF8670)
T71F0 000:444.439 - 0.015ms returns 0
T71F0 000:444.456 JLINK_WriteReg(R3, 0x00000000)
T71F0 000:444.470 - 0.014ms returns 0
T71F0 000:444.486 JLINK_WriteReg(R4, 0x00000000)
T71F0 000:444.501 - 0.014ms returns 0
T71F0 000:444.517 JLINK_WriteReg(R5, 0x00000000)
T71F0 000:444.537 - 0.019ms returns 0
T71F0 000:444.551 JLINK_WriteReg(R6, 0x00000000)
T71F0 000:444.566 - 0.014ms returns 0
T71F0 000:444.581 JLINK_WriteReg(R7, 0x00000000)
T71F0 000:444.595 - 0.014ms returns 0
T71F0 000:444.622 JLINK_WriteReg(R8, 0x00000000)
T71F0 000:444.644 - 0.021ms returns 0
T71F0 000:444.656 JLINK_WriteReg(R9, 0x1FFF866C)
T71F0 000:444.668 - 0.011ms returns 0
T71F0 000:444.681 JLINK_WriteReg(R10, 0x00000000)
T71F0 000:444.692 - 0.012ms returns 0
T71F0 000:444.705 JLINK_WriteReg(R11, 0x00000000)
T71F0 000:444.719 - 0.014ms returns 0
T71F0 000:444.734 JLINK_WriteReg(R12, 0x00000000)
T71F0 000:444.749 - 0.014ms returns 0
T71F0 000:444.763 JLINK_WriteReg(R13 (SP), 0x1FFF9000)
T71F0 000:444.783 - 0.018ms returns 0
T71F0 000:444.800 JLINK_WriteReg(R14, 0x1FFF8001)
T71F0 000:444.815 - 0.015ms returns 0
T71F0 000:444.828 JLINK_WriteReg(R15 (PC), 0x1FFF8488)
T71F0 000:444.839 - 0.011ms returns 0
T71F0 000:444.853 JLINK_WriteReg(XPSR, 0x01000000)
T71F0 000:444.868 - 0.014ms returns 0
T71F0 000:444.882 JLINK_WriteReg(MSP, 0x1FFF9000)
T71F0 000:444.894 - 0.011ms returns 0
T71F0 000:444.906 JLINK_WriteReg(PSP, 0x1FFF9000)
T71F0 000:444.920 - 0.014ms returns 0
T71F0 000:444.937 JLINK_WriteReg(CFBP, 0x00000000)
T71F0 000:444.952 - 0.015ms returns 0
T71F0 000:444.968 JLINK_SetBPEx(Addr = 0x1FFF8000, Type = 0xFFFFFFF2)
T71F0 000:444.986 - 0.017ms returns 0x0000000A
T71F0 000:445.002 JLINK_Go()
T71F0 000:445.023   CPU_WriteMem(4 bytes @ 0xE0002000)
T71F0 000:445.302   CPU_ReadMem(4 bytes @ 0xE0001000)
T71F0 000:447.303 - 2.300ms
T71F0 000:447.332 JLINK_IsHalted()
T71F0 000:448.244 - 0.911ms returns FALSE
T71F0 000:448.284 JLINK_HasError()
T71F0 000:456.820 JLINK_IsHalted()
T71F0 000:458.744 - 1.924ms returns TRUE
T71F0 000:458.775 JLINK_ReadReg(R15 (PC))
T71F0 000:458.801 - 0.026ms returns 0x1FFF8000
T71F0 000:458.819 JLINK_ClrBPEx(BPHandle = 0x0000000A)
T71F0 000:458.837 - 0.018ms returns 0x00
T71F0 000:458.853 JLINK_ReadReg(R0)
T71F0 000:458.865 - 0.013ms returns 0x00000000
T71F0 000:459.410 JLINK_WriteMem(0x1FFF8670, 0x190 Bytes, ...)
T71F0 000:459.431   Data:  65 35 00 00 7D 35 00 00 95 35 00 00 AD 35 00 00 ...
T71F0 000:459.464   CPU_WriteMem(400 bytes @ 0x1FFF8670)
T71F0 000:461.095 - 1.684ms returns 0x190
T71F0 000:461.139 JLINK_WriteMem(0x1FFF8800, 0x70 Bytes, ...)
T71F0 000:461.161   Data:  00 08 05 40 4D 41 00 00 81 02 00 00 D8 83 FF 1F ...
T71F0 000:461.196   CPU_WriteMem(112 bytes @ 0x1FFF8800)
T71F0 000:461.893 - 0.753ms returns 0x70
T71F0 000:461.923 JLINK_HasError()
T71F0 000:461.949 JLINK_WriteReg(R0, 0x00000200)
T71F0 000:461.971 - 0.022ms returns 0
T71F0 000:461.995 JLINK_WriteReg(R1, 0x00000200)
T71F0 000:462.016 - 0.020ms returns 0
T71F0 000:462.040 JLINK_WriteReg(R2, 0x1FFF8670)
T71F0 000:462.060 - 0.020ms returns 0
T71F0 000:462.090 JLINK_WriteReg(R3, 0x00000000)
T71F0 000:462.112 - 0.023ms returns 0
T71F0 000:462.134 JLINK_WriteReg(R4, 0x00000000)
T71F0 000:462.153 - 0.018ms returns 0
T71F0 000:462.175 JLINK_WriteReg(R5, 0x00000000)
T71F0 000:462.194 - 0.018ms returns 0
T71F0 000:462.216 JLINK_WriteReg(R6, 0x00000000)
T71F0 000:462.235 - 0.018ms returns 0
T71F0 000:462.257 JLINK_WriteReg(R7, 0x00000000)
T71F0 000:462.276 - 0.018ms returns 0
T71F0 000:462.298 JLINK_WriteReg(R8, 0x00000000)
T71F0 000:462.317 - 0.019ms returns 0
T71F0 000:462.339 JLINK_WriteReg(R9, 0x1FFF866C)
T71F0 000:462.362 - 0.023ms returns 0
T71F0 000:462.391 JLINK_WriteReg(R10, 0x00000000)
T71F0 000:462.414 - 0.022ms returns 0
T71F0 000:462.446 JLINK_WriteReg(R11, 0x00000000)
T71F0 000:462.472 - 0.026ms returns 0
T71F0 000:462.534 JLINK_WriteReg(R12, 0x00000000)
T71F0 000:462.555 - 0.020ms returns 0
T71F0 000:462.581 JLINK_WriteReg(R13 (SP), 0x1FFF9000)
T71F0 000:462.601 - 0.019ms returns 0
T71F0 000:462.624 JLINK_WriteReg(R14, 0x1FFF8001)
T71F0 000:462.642 - 0.019ms returns 0
T71F0 000:462.665 JLINK_WriteReg(R15 (PC), 0x1FFF8488)
T71F0 000:462.684 - 0.019ms returns 0
T71F0 000:462.706 JLINK_WriteReg(XPSR, 0x01000000)
T71F0 000:462.725 - 0.019ms returns 0
T71F0 000:462.748 JLINK_WriteReg(MSP, 0x1FFF9000)
T71F0 000:462.767 - 0.018ms returns 0
T71F0 000:462.802 JLINK_WriteReg(PSP, 0x1FFF9000)
T71F0 000:462.822 - 0.020ms returns 0
T71F0 000:462.842 JLINK_WriteReg(CFBP, 0x00000000)
T71F0 000:462.879 - 0.037ms returns 0
T71F0 000:462.900 JLINK_SetBPEx(Addr = 0x1FFF8000, Type = 0xFFFFFFF2)
T71F0 000:462.924 - 0.024ms returns 0x0000000B
T71F0 000:462.946 JLINK_Go()
T71F0 000:462.970   CPU_WriteMem(4 bytes @ 0xE0002000)
T71F0 000:463.243   CPU_ReadMem(4 bytes @ 0xE0001000)
T71F0 000:465.637 - 2.690ms
T71F0 000:465.682 JLINK_IsHalted()
T71F0 000:465.924 - 0.241ms returns FALSE
T71F0 000:465.954 JLINK_HasError()
T71F0 000:467.487 JLINK_IsHalted()
T71F0 000:469.242 - 1.755ms returns TRUE
T71F0 000:469.261 JLINK_ReadReg(R15 (PC))
T71F0 000:469.274 - 0.014ms returns 0x1FFF8000
T71F0 000:469.287 JLINK_ClrBPEx(BPHandle = 0x0000000B)
T71F0 000:469.307 - 0.020ms returns 0x00
T71F0 000:469.327 JLINK_ReadReg(R0)
T71F0 000:469.346 - 0.018ms returns 0x00000000
T71F0 000:470.005 JLINK_WriteMem(0x1FFF8670, 0x190 Bytes, ...)
T71F0 000:470.034   Data:  BF FF DF FF FF FE FF FF FF FF FF FF FF FF FF FF ...
T71F0 000:470.069   CPU_WriteMem(400 bytes @ 0x1FFF8670)
T71F0 000:471.657 - 1.652ms returns 0x190
T71F0 000:471.685 JLINK_WriteMem(0x1FFF8800, 0x70 Bytes, ...)
T71F0 000:471.704   Data:  F8 40 00 F0 5F B8 00 21 01 60 C0 E9 01 10 70 47 ...
T71F0 000:471.737   CPU_WriteMem(112 bytes @ 0x1FFF8800)
T71F0 000:472.476 - 0.790ms returns 0x70
T71F0 000:472.498 JLINK_HasError()
T71F0 000:472.518 JLINK_WriteReg(R0, 0x00000400)
T71F0 000:472.538 - 0.019ms returns 0
T71F0 000:472.557 JLINK_WriteReg(R1, 0x00000200)
T71F0 000:472.576 - 0.018ms returns 0
T71F0 000:472.595 JLINK_WriteReg(R2, 0x1FFF8670)
T71F0 000:472.613 - 0.018ms returns 0
T71F0 000:472.633 JLINK_WriteReg(R3, 0x00000000)
T71F0 000:472.651 - 0.018ms returns 0
T71F0 000:472.670 JLINK_WriteReg(R4, 0x00000000)
T71F0 000:472.688 - 0.018ms returns 0
T71F0 000:472.707 JLINK_WriteReg(R5, 0x00000000)
T71F0 000:472.725 - 0.018ms returns 0
T71F0 000:472.744 JLINK_WriteReg(R6, 0x00000000)
T71F0 000:472.762 - 0.018ms returns 0
T71F0 000:472.781 JLINK_WriteReg(R7, 0x00000000)
T71F0 000:472.800 - 0.018ms returns 0
T71F0 000:472.820 JLINK_WriteReg(R8, 0x00000000)
T71F0 000:472.838 - 0.018ms returns 0
T71F0 000:472.857 JLINK_WriteReg(R9, 0x1FFF866C)
T71F0 000:472.876 - 0.018ms returns 0
T71F0 000:472.895 JLINK_WriteReg(R10, 0x00000000)
T71F0 000:472.913 - 0.018ms returns 0
T71F0 000:472.933 JLINK_WriteReg(R11, 0x00000000)
T71F0 000:472.951 - 0.018ms returns 0
T71F0 000:472.970 JLINK_WriteReg(R12, 0x00000000)
T71F0 000:472.988 - 0.018ms returns 0
T71F0 000:473.008 JLINK_WriteReg(R13 (SP), 0x1FFF9000)
T71F0 000:473.027 - 0.018ms returns 0
T71F0 000:473.046 JLINK_WriteReg(R14, 0x1FFF8001)
T71F0 000:473.065 - 0.018ms returns 0
T71F0 000:473.084 JLINK_WriteReg(R15 (PC), 0x1FFF8488)
T71F0 000:473.102 - 0.018ms returns 0
T71F0 000:473.115 JLINK_WriteReg(XPSR, 0x01000000)
T71F0 000:473.127 - 0.012ms returns 0
T71F0 000:473.139 JLINK_WriteReg(MSP, 0x1FFF9000)
T71F0 000:473.151 - 0.011ms returns 0
T71F0 000:473.164 JLINK_WriteReg(PSP, 0x1FFF9000)
T71F0 000:473.175 - 0.011ms returns 0
T71F0 000:473.188 JLINK_WriteReg(CFBP, 0x00000000)
T71F0 000:473.199 - 0.011ms returns 0
T71F0 000:473.213 JLINK_SetBPEx(Addr = 0x1FFF8000, Type = 0xFFFFFFF2)
T71F0 000:473.225 - 0.012ms returns 0x0000000C
T71F0 000:473.237 JLINK_Go()
T71F0 000:473.250   CPU_WriteMem(4 bytes @ 0xE0002000)
T71F0 000:473.511   CPU_ReadMem(4 bytes @ 0xE0001000)
T71F0 000:475.506 - 2.268ms
T71F0 000:475.551 JLINK_IsHalted()
T71F0 000:475.839 - 0.287ms returns FALSE
T71F0 000:475.888 JLINK_HasError()
T71F0 000:477.818 JLINK_IsHalted()
T71F0 000:479.641 - 1.822ms returns TRUE
T71F0 000:479.677 JLINK_ReadReg(R15 (PC))
T71F0 000:479.701 - 0.024ms returns 0x1FFF8000
T71F0 000:479.723 JLINK_ClrBPEx(BPHandle = 0x0000000C)
T71F0 000:479.743 - 0.021ms returns 0x00
T71F0 000:479.765 JLINK_ReadReg(R0)
T71F0 000:479.785 - 0.020ms returns 0x00000000
T71F0 000:480.500 JLINK_WriteMem(0x1FFF8670, 0x190 Bytes, ...)
T71F0 000:480.531   Data:  B1 F1 20 01 BF F4 F7 AF 09 07 28 BF A0 E8 0C 50 ...
T71F0 000:480.573   CPU_WriteMem(400 bytes @ 0x1FFF8670)
T71F0 000:482.229 - 1.729ms returns 0x190
T71F0 000:482.256 JLINK_WriteMem(0x1FFF8800, 0x70 Bytes, ...)
T71F0 000:482.278   Data:  10 BD 09 A1 F8 E7 00 00 53 49 47 52 54 4D 45 4D ...
T71F0 000:482.311   CPU_WriteMem(112 bytes @ 0x1FFF8800)
T71F0 000:483.294 - 1.037ms returns 0x70
T71F0 000:483.335 JLINK_HasError()
T71F0 000:483.350 JLINK_WriteReg(R0, 0x00000600)
T71F0 000:483.367 - 0.015ms returns 0
T71F0 000:483.380 JLINK_WriteReg(R1, 0x00000200)
T71F0 000:483.394 - 0.013ms returns 0
T71F0 000:483.408 JLINK_WriteReg(R2, 0x1FFF8670)
T71F0 000:483.421 - 0.013ms returns 0
T71F0 000:483.452 JLINK_WriteReg(R3, 0x00000000)
T71F0 000:483.466 - 0.014ms returns 0
T71F0 000:483.498 JLINK_WriteReg(R4, 0x00000000)
T71F0 000:483.513 - 0.015ms returns 0
T71F0 000:483.527 JLINK_WriteReg(R5, 0x00000000)
T71F0 000:483.540 - 0.013ms returns 0
T71F0 000:483.554 JLINK_WriteReg(R6, 0x00000000)
T71F0 000:483.567 - 0.013ms returns 0
T71F0 000:483.581 JLINK_WriteReg(R7, 0x00000000)
T71F0 000:483.595 - 0.013ms returns 0
T71F0 000:483.609 JLINK_WriteReg(R8, 0x00000000)
T71F0 000:483.622 - 0.013ms returns 0
T71F0 000:483.636 JLINK_WriteReg(R9, 0x1FFF866C)
T71F0 000:483.649 - 0.013ms returns 0
T71F0 000:483.663 JLINK_WriteReg(R10, 0x00000000)
T71F0 000:483.708 - 0.044ms returns 0
T71F0 000:483.724 JLINK_WriteReg(R11, 0x00000000)
T71F0 000:483.738 - 0.013ms returns 0
T71F0 000:483.754 JLINK_WriteReg(R12, 0x00000000)
T71F0 000:483.766 - 0.011ms returns 0
T71F0 000:483.778 JLINK_WriteReg(R13 (SP), 0x1FFF9000)
T71F0 000:483.790 - 0.011ms returns 0
T71F0 000:483.802 JLINK_WriteReg(R14, 0x1FFF8001)
T71F0 000:483.817 - 0.015ms returns 0
T71F0 000:483.833 JLINK_WriteReg(R15 (PC), 0x1FFF8488)
T71F0 000:483.845 - 0.012ms returns 0
T71F0 000:483.857 JLINK_WriteReg(XPSR, 0x01000000)
T71F0 000:483.869 - 0.011ms returns 0
T71F0 000:483.881 JLINK_WriteReg(MSP, 0x1FFF9000)
T71F0 000:483.893 - 0.012ms returns 0
T71F0 000:483.906 JLINK_WriteReg(PSP, 0x1FFF9000)
T71F0 000:483.917 - 0.011ms returns 0
T71F0 000:483.930 JLINK_WriteReg(CFBP, 0x00000000)
T71F0 000:483.941 - 0.011ms returns 0
T71F0 000:483.955 JLINK_SetBPEx(Addr = 0x1FFF8000, Type = 0xFFFFFFF2)
T71F0 000:483.968 - 0.013ms returns 0x0000000D
T71F0 000:483.980 JLINK_Go()
T71F0 000:483.995   CPU_WriteMem(4 bytes @ 0xE0002000)
T71F0 000:484.264   CPU_ReadMem(4 bytes @ 0xE0001000)
T71F0 000:486.173 - 2.192ms
T71F0 000:486.201 JLINK_IsHalted()
T71F0 000:486.435 - 0.234ms returns FALSE
T71F0 000:486.459 JLINK_HasError()
T71F0 000:487.844 JLINK_IsHalted()
T71F0 000:488.080 - 0.236ms returns FALSE
T71F0 000:488.095 JLINK_HasError()
T71F0 000:489.833 JLINK_IsHalted()
T71F0 000:491.662 - 1.827ms returns TRUE
T71F0 000:491.714 JLINK_ReadReg(R15 (PC))
T71F0 000:491.741 - 0.027ms returns 0x1FFF8000
T71F0 000:491.771 JLINK_ClrBPEx(BPHandle = 0x0000000D)
T71F0 000:491.798 - 0.027ms returns 0x00
T71F0 000:491.829 JLINK_ReadReg(R0)
T71F0 000:491.855 - 0.025ms returns 0x00000000
T71F0 000:492.645 JLINK_WriteMem(0x1FFF8670, 0x190 Bytes, ...)
T71F0 000:492.673   Data:  00 80 08 B5 69 46 8D F8 00 00 03 20 AB BE 08 BD ...
T71F0 000:492.702   CPU_WriteMem(400 bytes @ 0x1FFF8670)
T71F0 000:494.371 - 1.726ms returns 0x190
T71F0 000:494.397 JLINK_WriteMem(0x1FFF8800, 0x70 Bytes, ...)
T71F0 000:494.409   Data:  9D F8 03 10 01 20 00 FA 01 F2 01 99 48 69 10 43 ...
T71F0 000:494.431   CPU_WriteMem(112 bytes @ 0x1FFF8800)
T71F0 000:495.096 - 0.699ms returns 0x70
T71F0 000:495.111 JLINK_HasError()
T71F0 000:495.124 JLINK_WriteReg(R0, 0x00000800)
T71F0 000:495.137 - 0.013ms returns 0
T71F0 000:495.150 JLINK_WriteReg(R1, 0x00000200)
T71F0 000:495.161 - 0.011ms returns 0
T71F0 000:495.173 JLINK_WriteReg(R2, 0x1FFF8670)
T71F0 000:495.185 - 0.011ms returns 0
T71F0 000:495.197 JLINK_WriteReg(R3, 0x00000000)
T71F0 000:495.209 - 0.011ms returns 0
T71F0 000:495.221 JLINK_WriteReg(R4, 0x00000000)
T71F0 000:495.233 - 0.011ms returns 0
T71F0 000:495.245 JLINK_WriteReg(R5, 0x00000000)
T71F0 000:495.257 - 0.011ms returns 0
T71F0 000:495.269 JLINK_WriteReg(R6, 0x00000000)
T71F0 000:495.293 - 0.024ms returns 0
T71F0 000:495.305 JLINK_WriteReg(R7, 0x00000000)
T71F0 000:495.316 - 0.011ms returns 0
T71F0 000:495.328 JLINK_WriteReg(R8, 0x00000000)
T71F0 000:495.340 - 0.011ms returns 0
T71F0 000:495.352 JLINK_WriteReg(R9, 0x1FFF866C)
T71F0 000:495.363 - 0.011ms returns 0
T71F0 000:495.375 JLINK_WriteReg(R10, 0x00000000)
T71F0 000:495.387 - 0.011ms returns 0
T71F0 000:495.399 JLINK_WriteReg(R11, 0x00000000)
T71F0 000:495.411 - 0.011ms returns 0
T71F0 000:495.423 JLINK_WriteReg(R12, 0x00000000)
T71F0 000:495.435 - 0.011ms returns 0
T71F0 000:495.447 JLINK_WriteReg(R13 (SP), 0x1FFF9000)
T71F0 000:495.458 - 0.011ms returns 0
T71F0 000:495.470 JLINK_WriteReg(R14, 0x1FFF8001)
T71F0 000:495.483 - 0.012ms returns 0
T71F0 000:495.495 JLINK_WriteReg(R15 (PC), 0x1FFF8488)
T71F0 000:495.506 - 0.011ms returns 0
T71F0 000:495.518 JLINK_WriteReg(XPSR, 0x01000000)
T71F0 000:495.530 - 0.011ms returns 0
T71F0 000:495.542 JLINK_WriteReg(MSP, 0x1FFF9000)
T71F0 000:495.553 - 0.011ms returns 0
T71F0 000:495.565 JLINK_WriteReg(PSP, 0x1FFF9000)
T71F0 000:495.576 - 0.011ms returns 0
T71F0 000:495.588 JLINK_WriteReg(CFBP, 0x00000000)
T71F0 000:495.600 - 0.011ms returns 0
T71F0 000:495.612 JLINK_SetBPEx(Addr = 0x1FFF8000, Type = 0xFFFFFFF2)
T71F0 000:495.624 - 0.012ms returns 0x0000000E
T71F0 000:495.636 JLINK_Go()
T71F0 000:495.650   CPU_WriteMem(4 bytes @ 0xE0002000)
T71F0 000:495.907   CPU_ReadMem(4 bytes @ 0xE0001000)
T71F0 000:497.860 - 2.223ms
T71F0 000:497.881 JLINK_IsHalted()
T71F0 000:498.164 - 0.282ms returns FALSE
T71F0 000:498.185 JLINK_HasError()
T71F0 000:500.174 JLINK_IsHalted()
T71F0 000:502.100 - 1.925ms returns TRUE
T71F0 000:502.135 JLINK_ReadReg(R15 (PC))
T71F0 000:502.156 - 0.021ms returns 0x1FFF8000
T71F0 000:502.177 JLINK_ClrBPEx(BPHandle = 0x0000000E)
T71F0 000:502.196 - 0.019ms returns 0x00
